Circuit: * C:\Users\afzal\Documents\FINAL INTERNSHIP\cd\Assignment_CD.asc

Ignoring BSIM parameter ACM
Ignoring BSIM parameter HDIF
Ignoring BSIM parameter XL
Ignoring BSIM parameter XW
Warning: Pd = 0 is less than W.
Warning: Ps = 0 is less than W.
Warning: Pd = 0 is less than W.
Warning: Ps = 0 is less than W.
Direct Newton iteration for .op point succeeded.
Semiconductor Device Operating Points:
                        --- BSIM3 MOSFETS ---
Name:        m2          m1
Model:       nch         nch
Id:        2.99e-03    2.99e-03
Vgs:       1.35e+00    9.77e-01
Vds:       7.45e-01    1.06e+00
Vbs:       0.00e+00   -7.45e-01
Vth:       4.60e-01    6.50e-01
Vdsat:     5.06e-01    2.58e-01
Gm:        5.26e-03    1.60e-02
Gds:       3.09e-04    2.30e-04
Gmb        1.39e-03    3.38e-03
Cbd:       0.00e+00    0.00e+00
Cbs:       0.00e+00    0.00e+00
Cgsov:     7.46e-15    3.71e-14
Cgdov:     7.46e-15    3.71e-14
Cgbov:     3.28e-19    3.28e-19
dQgdVgb:   5.05e-14    2.47e-13
dQgdVdb:  -7.43e-15   -3.61e-14
dQgdVsb:  -4.18e-14   -2.01e-13
dQddVgb:  -7.81e-15   -3.73e-14
dQddVdb:   7.98e-15    3.72e-14
dQddVsb:  -1.09e-16    9.56e-17
dQbdVgb:  -7.40e-15   -3.31e-14
dQbdVdb:  -1.60e-16    3.09e-17
dQbdVsb:  -2.20e-15   -7.16e-15



Date: Mon Jul 10 16:17:57 2023
Total elapsed time: 0.123 seconds.

tnom = 27
temp = 27
method = trap
totiter = 6
traniter = 0
tranpoints = 0
accept = 0
rejected = 0
matrix size = 7
fillins = 0
solver = Normal
Matrix Compiler1:      12 opcodes
Matrix Compiler2: 461 bytes object code size
