Circuit: * C:\Users\afzal\Documents\@AFZAL\professional works\banglore internship\Week2\Current Mirror\CurrentMirrorSimple -1.asc

Warning: Pd = 0 is less than W.
Warning: Ps = 0 is less than W.
Warning: Pd = 0 is less than W.
Warning: Ps = 0 is less than W.
Direct Newton iteration for .op point succeeded.
Semiconductor Device Operating Points:
                        --- BSIM3 MOSFETS ---
Name:        m3          m2          m1
Model:      pmos        nmos        nmos
Id:       -5.24e-05    5.23e-04    5.24e-05
Vgs:      -1.19e+00    6.07e-01    6.07e-01
Vds:      -1.19e+00    6.00e-01    6.07e-01
Vbs:       0.00e+00    0.00e+00    0.00e+00
Vth:      -4.68e-01    4.66e-01    4.66e-01
Vdsat:    -5.47e-01    1.10e-01    1.10e-01
Gm:        1.24e-04    8.10e-03    8.11e-04
Gds:       3.75e-06    7.59e-05    7.57e-06
Gmb        4.07e-05    2.14e-03    2.14e-04
Cbd:       0.00e+00    0.00e+00    0.00e+00
Cbs:       0.00e+00    0.00e+00    0.00e+00
Cgsov:     8.95e-16    7.62e-14    7.62e-15
Cgdov:     8.95e-16    7.62e-14    7.62e-15
Cgbov:     3.11e-19    3.33e-18    3.33e-19
dQgdVgb:   4.58e-15    3.82e-13    3.82e-14
dQgdVdb:  -8.96e-16   -7.63e-14   -7.63e-15
dQgdVsb:  -3.64e-15   -2.88e-13   -2.88e-14
dQddVgb:  -1.99e-15   -1.67e-13   -1.67e-14
dQddVdb:   8.96e-16    7.63e-14    7.63e-15
dQddVsb:   1.45e-15    1.17e-13    1.17e-14
dQbdVgb:  -5.89e-16   -4.82e-14   -4.83e-15
dQbdVdb:  -9.48e-19   -5.73e-17   -5.50e-18
dQbdVsb:  -1.52e-16   -2.30e-14   -2.30e-15



Date: Mon Jul 10 17:17:33 2023
Total elapsed time: 0.110 seconds.

tnom = 27
temp = 27
method = trap
totiter = 6
traniter = 0
tranpoints = 0
accept = 0
rejected = 0
matrix size = 5
fillins = 0
solver = Normal
Matrix Compiler1: 114 bytes object code size
Matrix Compiler2: 301 bytes object code size
