Circuit: * C:\Users\afzal\Documents\FINAL INTERNSHIP\CS ( NMOS + PMOS CURRENT SOURCE )\CS AMPLIFIER (NMOS + PMOS Current Source).asc

Ignoring BSIM parameter ACM
Ignoring BSIM parameter HDIF
Ignoring BSIM parameter XL
Ignoring BSIM parameter XW
Ignoring BSIM parameter ACM
Ignoring BSIM parameter HDIF
Ignoring BSIM parameter XL
Ignoring BSIM parameter XW
Warning: Pd = 0 is less than W.
Warning: Ps = 0 is less than W.
Warning: Pd = 0 is less than W.
Warning: Ps = 0 is less than W.
Direct Newton iteration for .op point succeeded.
Semiconductor Device Operating Points:
                        --- BSIM3 MOSFETS ---
Name:        m2          m1
Model:       pch         nch
Id:       -1.62e-04    1.62e-04
Vgs:      -6.60e-01    6.20e-01
Vds:      -7.31e-01    1.07e+00
Vbs:       0.00e+00    0.00e+00
Vth:      -4.50e-01    4.58e-01
Vdsat:    -1.82e-01    1.30e-01
Gm:        1.47e-03    1.97e-03
Gds:       2.58e-05    2.28e-05
Gmb        4.65e-04    5.23e-04
Cbd:       0.00e+00    0.00e+00
Cbs:       0.00e+00    0.00e+00
Cgsov:     2.28e-14    8.75e-15
Cgdov:     2.28e-14    8.75e-15
Cgbov:     2.98e-19    3.28e-19
dQgdVgb:   1.19e-13    5.89e-14
dQgdVdb:  -2.28e-14   -8.52e-15
dQgdVsb:  -9.21e-14   -4.74e-14
dQddVgb:  -2.29e-14   -8.77e-15
dQddVdb:   2.29e-14    8.76e-15
dQddVsb:   8.65e-17    2.18e-17
dQbdVgb:  -1.51e-14   -8.99e-15
dQbdVdb:  -1.41e-17    2.25e-17
dQbdVsb:  -7.46e-15   -3.87e-15



Date: Tue Jul 11 15:45:23 2023
Total elapsed time: 0.106 seconds.

tnom = 27
temp = 27
method = trap
totiter = 6
traniter = 0
tranpoints = 0
accept = 0
rejected = 0
matrix size = 7
fillins = 0
solver = Normal
Matrix Compiler1:      13 opcodes
Matrix Compiler2: 455 bytes object code size
