Circuit: * C:\Users\afzal\Documents\FINAL INTERNSHIP\cs amp for differential\cs amp for differential.asc

Ignoring BSIM parameter ACM
Ignoring BSIM parameter HDIF
Ignoring BSIM parameter XL
Ignoring BSIM parameter XW
Ignoring BSIM parameter ACM
Ignoring BSIM parameter HDIF
Ignoring BSIM parameter XL
Ignoring BSIM parameter XW
Warning: Pd = 0 is less than W.
Warning: Ps = 0 is less than W.
Warning: Pd = 0 is less than W.
Warning: Ps = 0 is less than W.
Direct Newton iteration for .op point succeeded.
Semiconductor Device Operating Points:
                        --- BSIM3 MOSFETS ---
Name:        m2          m1
Model:       pch         nch
Id:       -1.66e-04    1.66e-04
Vgs:      -8.74e-01    7.42e-01
Vds:      -6.97e-01    6.53e-01
Vbs:       0.00e+00   -4.50e-01
Vth:      -4.49e-01    5.83e-01
Vdsat:    -3.43e-01    1.40e-01
Gm:        6.84e-04    1.97e-03
Gds:       2.14e-05    2.59e-05
Gmb        2.24e-04    4.51e-04
Cbd:       0.00e+00    0.00e+00
Cbs:       0.00e+00    0.00e+00
Cgsov:     6.50e-15    8.31e-15
Cgdov:     6.50e-15    8.31e-15
Cgbov:     2.98e-19    3.28e-19
dQgdVgb:   3.39e-14    5.53e-14
dQgdVdb:  -6.52e-15   -8.09e-15
dQgdVsb:  -2.65e-14   -4.47e-14
dQddVgb:  -6.57e-15   -8.37e-15
dQddVdb:   6.56e-15    8.33e-15
dQddVsb:   2.45e-17    5.28e-17
dQbdVgb:  -4.29e-15   -7.79e-15
dQbdVdb:  -1.85e-17    6.40e-18
dQbdVsb:  -1.97e-15   -2.27e-15



Date: Sun Jul 09 19:37:36 2023
Total elapsed time: 0.071 seconds.

tnom = 27
temp = 27
method = trap
totiter = 10
traniter = 0
tranpoints = 0
accept = 0
rejected = 0
matrix size = 9
fillins = 0
solver = Normal
Matrix Compiler1:      18 opcodes
Matrix Compiler2: 615 bytes object code size
