Circuit: * C:\Users\afzal\Documents\@AFZAL\professional works\banglore internship\latest\CS AMP FOR ONE STAGE OPAMP new.asc

Ignoring BSIM parameter ACM
Ignoring BSIM parameter HDIF
Ignoring BSIM parameter XL
Ignoring BSIM parameter XW
Ignoring BSIM parameter ACM
Ignoring BSIM parameter HDIF
Ignoring BSIM parameter XL
Ignoring BSIM parameter XW
Warning: Pd = 0 is less than W.
Warning: Ps = 0 is less than W.
Warning: Pd = 0 is less than W.
Warning: Ps = 0 is less than W.
Direct Newton iteration for .op point succeeded.
Semiconductor Device Operating Points:
                        --- BSIM3 MOSFETS ---
Name:        m2          m1
Model:       pch         nch
Id:       -2.87e-05    2.87e-05
Vgs:      -7.92e-01    7.38e-01
Vds:      -6.27e-01    7.23e-01
Vbs:       0.00e+00   -4.50e-01
Vth:      -4.48e-01    5.81e-01
Vdsat:    -2.77e-01    1.38e-01
Gm:        1.51e-04    3.43e-04
Gds:       4.21e-06    4.44e-06
Gmb        4.76e-05    7.79e-05
Cbd:       0.00e+00    0.00e+00
Cbs:       0.00e+00    0.00e+00
Cgsov:     1.67e-15    1.44e-15
Cgdov:     1.67e-15    1.44e-15
Cgbov:     2.98e-19    3.28e-19
dQgdVgb:   8.72e-15    9.61e-15
dQgdVdb:  -1.67e-15   -1.40e-15
dQgdVsb:  -6.79e-15   -7.78e-15
dQddVgb:  -1.69e-15   -1.45e-15
dQddVdb:   1.68e-15    1.45e-15
dQddVsb:   7.72e-18    7.50e-18
dQbdVgb:  -1.13e-15   -1.36e-15
dQbdVdb:  -4.62e-18    1.55e-18
dQbdVsb:  -4.84e-16   -3.83e-16



Date: Fri Jul 07 14:30:27 2023
Total elapsed time: 0.222 seconds.

tnom = 27
temp = 27
method = trap
totiter = 6
traniter = 0
tranpoints = 0
accept = 0
rejected = 0
matrix size = 9
fillins = 0
solver = Normal
Matrix Compiler1: 296 bytes object code size
Matrix Compiler2: 615 bytes object code size
