Circuit: * C:\Users\afzal\Documents\@AFZAL\professional works\banglore internship\latest\Draft1.asc

Ignoring BSIM parameter ACM
Ignoring BSIM parameter HDIF
Ignoring BSIM parameter XL
Ignoring BSIM parameter XW
Warning: Pd = 0 is less than W.
Warning: Ps = 0 is less than W.
Direct Newton iteration for .op point succeeded.
Semiconductor Device Operating Points:
                        --- BSIM3 MOSFETS ---
Name:        m1
Model:       nch
Id:        2.69e-05
Vgs:       7.40e-01
Vds:       4.50e-01
Vbs:       0.00e+00
Vth:       4.60e-01
Vdsat:     2.02e-01
Gm:        1.84e-04
Gds:       4.21e-06
Gmb        4.71e-05
Cbd:       0.00e+00
Cbs:       0.00e+00
Cgsov:     4.91e-16
Cgdov:     4.91e-16
Cgbov:     3.28e-19
dQgdVgb:   3.33e-15
dQgdVdb:  -4.81e-16
dQgdVsb:  -2.70e-15
dQddVgb:  -5.05e-16
dQddVdb:   5.04e-16
dQddVsb:   5.20e-18
dQbdVgb:  -5.02e-16
dQbdVdb:  -3.23e-18
dQbdVsb:  -1.99e-16



Date: Fri Jul 07 18:25:37 2023
Total elapsed time: 1.131 seconds.

tnom = 27
temp = 27
method = trap
totiter = 4
traniter = 0
tranpoints = 0
accept = 0
rejected = 0
matrix size = 4
fillins = 0
solver = Normal
Matrix Compiler1: 118 bytes object code size
Matrix Compiler2: 216 bytes object code size
